<Qucs Dataset 0.0.19>
<indep acfrequency 25>
  +0.00000000000000000000e+000
  +4.16666666666666685614e+002
  +8.33333333333333371229e+002
  +1.25000000000000000000e+003
  +1.66666666666666674246e+003
  +2.08333333333333348492e+003
  +2.50000000000000000000e+003
  +2.91666666666666651508e+003
  +3.33333333333333348492e+003
  +3.75000000000000000000e+003
  +4.16666666666666696983e+003
  +4.58333333333333303017e+003
  +5.00000000000000000000e+003
  +5.41666666666666696983e+003
  +5.83333333333333303017e+003
  +6.25000000000000000000e+003
  +6.66666666666666696983e+003
  +7.08333333333333303017e+003
  +7.50000000000000000000e+003
  +7.91666666666666696983e+003
  +8.33333333333333393966e+003
  +8.75000000000000000000e+003
  +9.16666666666666606034e+003
  +9.58333333333333393966e+003
  +1.00000000000000000000e+004
</indep>
<dep Pr2.vn acfrequency>
  +3.16227766015927784338e+002
  +2.25667965853523000419e+001
  +7.50173996720752143119e+001
  +1.64026806062852983814e+002
  +1.29492134718677419869e+002
  +2.11255299114479910827e+001
  +1.55324874854697384308e+002
  +1.03166411490860241429e+002
  +1.00000356725883548847e+002
  +1.15069921662441615240e+002
  +1.49262046910596154703e+002
  +8.20777619247864720364e+001
  +1.31641000295351801697e+002
  +nan
  +5.84356315790378744168e+001
  +4.45266127970066420971e+001
  +6.50597661005826353176e+001
  +9.26698929267659536890e+001
  +1.27691542016994432629e+002
  +1.22071694062854916751e+002
  +8.70177047283498694696e+001
  +4.95059867842994592024e+001
  +1.06144722624152251456e+002
  +5.72185172681491778235e+001
  +1.18163597075164645389e+002
</dep>
<dep Pr1.vn acfrequency>
  +3.16227766016837904317e+002
  +0.00000000000000000000e+000
  +4.82859990155192697614e+000
  +3.16227766016837904317e+002
  +2.59384952409481286395e+002
  +1.52053953122573375367e+002
  +3.16225713748884686538e+002
  +2.44536147439761862188e+002
  +2.53520278479380692715e+002
  +2.80523605914758036306e+002
  +3.16227765996880236798e+002
  +2.27724219831327246766e+002
  +2.99933196867994695367e+002
  +nan
  +1.82688453487668709840e+002
  +1.41421356240497118506e+002
  +2.55612525745120365173e+002
  +2.66607232647826776883e+002
  +3.03336724639514386581e+002
  +2.35702260395515793334e+002
  +2.64625334611964774467e+002
  +1.94178027538321231305e+002
  +2.62021998101467204378e+002
  +1.23606797752232964172e+002
  +3.09322779494435337710e+002
</dep>
<dep Pr3.vn acfrequency>
  +0.00000000000000000000e+000
  +1.15931326814254049395e+002
  +1.38979169142455361907e+002
  +1.45673798094234939526e+002
  +1.06737820113411956413e+002
  +7.20785846732900203904e+000
  +1.42443278181678493866e+002
  +9.74216281119220184337e+001
  +9.22364166131591787234e+001
  +9.89058018244558070364e+001
  +1.27424902680480798267e+002
  +8.19384773559566781387e+001
  +1.08931028767074877805e+002
  +nan
  +7.18687053248930851623e+001
  +1.07641657519455776537e+002
  +8.32171879413318649199e+000
  +6.69373961828188299705e+001
  +9.19234992933211714217e+001
  +9.74269722038759766747e+001
  +5.88128520571137016759e+001
  +5.63235533961677674597e+001
  +8.27022374127833330704e+001
  +7.00090908910982978597e+000
  +6.04039348358685117546e+001
</dep>
<dep Pr4.vn acfrequency>
  +3.16227766015550798784e+002
  +9.22295887862370307175e+001
  +1.76028012249452814331e+001
  +3.83815965263077103486e+001
  +5.64237858752919407834e+001
  +2.71301615516194800648e+001
  +3.79356213069722585374e+001
  +3.15682049882094624138e+001
  +2.36265035692115503707e+001
  +1.14753715971782135341e+001
  +8.84744277258361933036e+000
  +1.79879185258389959756e+001
  +1.29629514102653651264e+001
  +nan
  +1.44349177489529072460e+001
  +9.89204148789318082891e+000
  +1.05292149453038419438e+001
  +5.14855517311468613428e+000
  +8.71583643736755497855e+000
  +7.20287275128907644728e+000
  +4.40588549397036555177e+000
  +8.09342299472316994979e+000
  +9.13549757523247762947e+000
  +1.86414911726849030771e+000
  +8.06003522739784905582e+000
</dep>
<dep V2.in acfrequency>
  +0.00000000000000000000e+000
  +2.72124903930973927046e+000
  +3.17608900594309195853e+000
  +3.29927332494666325502e+000
  +3.35912343785085365511e+000
  +3.40233351720303467403e+000
  +3.44140148597155848265e+000
  +3.48057403935560527586e+000
  +3.52144903198937742062e+000
  +3.56459527519363827963e+000
  +3.61012568959869950547e+000
  +3.65793328968799569267e+000
  +3.70780081780457893004e+000
  +3.75945697326273853278e+000
  +3.81260764232733073698e+000
  +3.86695431261393940403e+000
  +3.92220535366121092480e+000
  +3.97808302483792664006e+000
  +4.03432776140749993488e+000
  +4.09070064151192092083e+000
  +4.14698459627369331315e+000
  +4.20298473490670332353e+000
  +4.25852804348001612311e+000
  +4.31346264422762004642e+000
  +4.36765675407351405823e+000
</dep>
<dep _net0.vn acfrequency>
  +0.00000000000000000000e+000
  +2.23606797749978966294e+002
  +1.61721508012099150164e+002
  +3.95284707521047380396e+002
  +3.45134244981508800265e+002
  +2.40442300770891790762e+002
  +3.16227766023497451897e+002
  +3.00823951015647764962e+002
  +2.89418186363661448013e+002
  +2.98630755057960527665e+002
  +3.32871332629345431542e+002
  +2.81631389072775277782e+002
  +3.08102929745676647144e+002
  +3.16227766009923072943e+002
  +2.68437746073612288455e+002
  +2.82842712474619020213e+002
  +3.07766144986741494449e+002
  +2.91587724254559532255e+002
  +3.09784983441742326704e+002
  +4.71404520791031643512e+002
  +2.90619096859810213118e+002
  +2.59937622461205251057e+002
  +3.04565561079262636213e+002
  +2.23606797749978994716e+002
  +3.20889851864170850604e+002
</dep>
<dep _net3.vn acfrequency>
  +0.00000000000000000000e+000
  +2.23606797749978966294e+002
  +1.61721508012099150164e+002
  +3.95284707521047380396e+002
  +3.45134244981508800265e+002
  +2.40442300770891790762e+002
  +3.16227766023497451897e+002
  +3.00823951015647764962e+002
  +2.89418186363661448013e+002
  +2.98630755057960527665e+002
  +3.32871332629345431542e+002
  +2.81631389072775277782e+002
  +3.08102929745676647144e+002
  +3.16227766009923072943e+002
  +2.68437746073612288455e+002
  +2.82842712474619020213e+002
  +3.07766144986741494449e+002
  +2.91587724254559532255e+002
  +3.09784983441742326704e+002
  +4.71404520791031643512e+002
  +2.90619096859810213118e+002
  +2.59937622461205251057e+002
  +3.04565561079262636213e+002
  +2.23606797749978994716e+002
  +3.20889851864170850604e+002
</dep>
<dep _net2.vn acfrequency>
  +3.16227766016837904317e+002
  +2.23606797749978966294e+002
  +1.56892908110547210754e+002
  +7.90569415042094760793e+001
  +8.57492925720275280810e+001
  +8.83883476483184438166e+001
  +2.05227461275997620505e-003
  +5.62878035758859098792e+001
  +3.58979078842807624028e+001
  +1.81071491432024380686e+001
  +1.66435666324651556636e+001
  +5.39071692414480381217e+001
  +8.16973287768195177705e+000
  +nan
  +8.57492925859435359826e+001
  +1.41421356234121901707e+002
  +5.21536192416211790146e+001
  +2.49804916067327908991e+001
  +6.44825880222794634022e+000
  +2.35702260395515850178e+002
  +2.59937622478453995711e+001
  +6.57595949228840197520e+001
  +4.25435629777954673614e+001
  +9.99999999977460305445e+001
  +1.15670723697355342097e+001
</dep>
<dep _net6.vn acfrequency>
  +3.16227766016837904317e+002
  +1.04730988143892915332e+002
  +2.93094732083540172596e+001
  +2.25833012536952196569e+002
  +1.81857272955106111567e+002
  +7.91976227155503522681e+001
  +1.49245108112663871225e+002
  +1.43159873395076061797e+002
  +1.25988877213324158788e+002
  +1.29839443325406733720e+002
  +1.63565260507442900462e+002
  +1.26137148087383195616e+002
  +1.37331077990872188366e+002
  +1.44457838689922937192e+002
  +1.33412118019032078564e+002
  +1.10115024726232647367e+002
  +1.20738728994087409774e+002
  +1.15572003470545212167e+002
  +1.32634186471779258909e+002
  +3.51982069866628705768e+002
  +1.11169174980725330215e+002
  +1.09378424982323053882e+002
  +1.44993359598474569339e+002
  +3.73362199510344439091e+001
  +1.29705107180358339747e+002
</dep>
<dep _net1.vn acfrequency>
  +9.10160425290184388025e-010
  +2.46173594335331273442e+002
  +8.18755084384719964419e+001
  +2.43083747567062459893e+002
  +2.15241427290704933739e+002
  +1.09513877559766427794e+002
  +1.55326927129310121245e+002
  +1.59454215066746144203e+002
  +1.35898264610164318356e+002
  +1.33177070805644035545e+002
  +1.65905613543061292603e+002
  +1.35984931166234503053e+002
  +1.39810733173033753474e+002
  +1.46492355214265472796e+002
  +1.44184924164981424610e+002
  +9.68947434371152667154e+001
  +1.17213385342203821438e+002
  +1.17650384533498751694e+002
  +1.34139800819222386963e+002
  +3.57773954458370781140e+002
  +1.13011466976195265488e+002
  +1.15265581707183471849e+002
  +1.48688285601947711712e+002
  +4.27814827295968527210e+001
  +1.29730669444900172493e+002
</dep>
<dep _net5.vn acfrequency>
  +3.16227766016837904317e+002
  +1.07675470935724916899e+002
  +1.79137389680918417412e+001
  +2.24730739598444415606e+002
  +1.92487112685439484494e+002
  +9.55962061156474476320e+001
  +1.42445330456291230803e+002
  +1.53709431687807921207e+002
  +1.28134324497439934021e+002
  +1.17012950967658241552e+002
  +1.44068469312945950378e+002
  +1.35845646597404709155e+002
  +1.17100761644756829583e+002
  +1.19599800172126847997e+002
  +1.57617997910836606934e+002
  +3.37796987146661322754e+001
  +6.04753380357543619539e+001
  +9.19178877895516279750e+001
  +9.83717580955491257555e+001
  +3.33129232599391855274e+002
  +8.48066143049590976943e+001
  +1.22083148319051787212e+002
  +1.25245800390578793326e+002
  +9.29990909086362051994e+001
  +7.19710072056040388588e+001
</dep>
<dep _net4.vn acfrequency>
  +1.28716045794846563701e-009
  +3.15836386536215968590e+002
  +1.74495709335492506398e+002
  +1.17438538030517193533e+002
  +1.42173078447319483075e+002
  +1.15518509199937923881e+002
  +3.79376735815850167910e+001
  +8.78560085640953758457e+001
  +5.95244114534923127735e+001
  +2.95825207403806516027e+001
  +2.54910094050487749939e+001
  +7.18950877672870376500e+001
  +2.11326842879473169035e+001
  +1.69156385572068543865e+001
  +1.00184210334896448558e+002
  +1.31529314746228720878e+002
  +4.16244042963173370708e+001
  +3.01290467798474779215e+001
  +1.51640952395955004306e+001
  +2.42905133146804928401e+002
  +3.03996477418157660111e+001
  +7.38530179176071897018e+001
  +5.16790605530279449908e+001
  +1.01864149115014512859e+002
  +3.50703714233768426567e+000
</dep>
<dep Pr2.v acfrequency>
  +1.32000000000000006217e+000
  +8.69589531477536814563e-001-j3.45977979287676096209e-001
  +7.08332857519600844753e-001-j2.55492874748085130321e-001
  +6.63308960949285486564e-001-j2.07162704320795310053e-001
  +6.43990314394801366404e-001-j1.85820677967973302280e-001
  +6.32499800377253507122e-001-j1.77731593082767952430e-001
  +6.23821069227284974446e-001-j1.76710534949316100395e-001
  +6.16156594747311547877e-001-j1.79742969571496880032e-001
  +6.08755115510119959588e-001-j1.85205273621390054117e-001
  +6.01273498666848982275e-001-j1.92146724804356683336e-001
  +5.93550462661182387514e-001-j1.99972188489726893090e-001
  +5.85514305246682020822e-001-j2.08288973936395838127e-001
  +5.77140941096455084569e-001-j2.16827157352338706353e-001
  +5.68433040815911949650e-001-j2.25395418737191377545e-001
  +5.59408845548438726780e-001-j2.33855201750092667190e-001
  +5.50095760836800673488e-001-j2.42104860932364773785e-001
  +5.40526468891146305573e-001-j2.50069513074723415169e-001
  +5.30736447997424587442e-001-j2.57694280470750158862e-001
  +5.20762322716244452359e-001-j2.64939624066326595564e-001
  +5.10640731346786225231e-001-j2.71778006418318618387e-001
  +5.00407532373597030428e-001-j2.78191426718866319234e-001
  +4.90097244020841815715e-001-j2.84169544673537943780e-001
  +4.79742651171095546569e-001-j2.89708213775423717440e-001
  +4.69374536862270486104e-001-j2.94808307765591859351e-001
  +4.59021509116458559241e-001-j2.99474763458053294674e-001
</dep>
<dep Pr1.v acfrequency>
  +1.32000000000000006217e+000
  +1.32000000000000006217e+000
  +1.32000000000000006217e+000
  +1.32000000000000006217e+000
  +1.32000000000000006217e+000
  +1.32000000000000006217e+000
  +1.32000000000000006217e+000
  +1.32000000000000006217e+000
  +1.32000000000000006217e+000
  +1.32000000000000006217e+000
  +1.32000000000000006217e+000
  +1.32000000000000006217e+000
  +1.32000000000000006217e+000
  +1.32000000000000006217e+000
  +1.32000000000000006217e+000
  +1.32000000000000006217e+000
  +1.32000000000000006217e+000
  +1.32000000000000006217e+000
  +1.32000000000000006217e+000
  +1.32000000000000006217e+000
  +1.32000000000000006217e+000
  +1.32000000000000006217e+000
  +1.32000000000000006217e+000
  +1.32000000000000006217e+000
  +1.32000000000000006217e+000
</dep>
<dep Pr3.v acfrequency>
  +0.00000000000000000000e+000
  +4.38037938989141006907e-001+j2.69171617768718229868e-001
  +5.82532782624778144864e-001+j1.13793129033873618994e-001
  +6.08065191373514446482e-001+j3.70716025200357179870e-003
  +6.03452060890232511170e-001-j7.68342215119404703394e-002
  +5.86336684739247049336e-001-j1.40815424288048551826e-001
  +5.62156171354308287214e-001-j1.93713991188324052839e-001
  +5.33380773747971659304e-001-j2.38044795780352647085e-001
  +5.01522270806585512837e-001-j2.75137186197895622364e-001
  +4.67691122119115565425e-001-j3.05827430201586591973e-001
  +4.32776013231715550589e-001-j3.30746086774915459827e-001
  +3.97508074168288927375e-001-j3.50440326404216628831e-001
  +3.62487368404557253054e-001-j3.65423743418501645319e-001
  +3.28197487083454919610e-001-j3.76193115970652802726e-001
  +2.95017171574225245401e-001-j3.83230372155786425115e-001
  +2.63231776858364185934e-001-j3.86998653534606495974e-001
  +2.33045102261336289917e-001-j3.87936852102123530539e-001
  +2.04591320619456312757e-001-j3.86454680377126269519e-001
  +1.77946548631984974298e-001-j3.82929109648809606892e-001
  +1.53139651525758369033e-001-j3.77702369110502034211e-001
  +1.30162001966115992158e-001-j3.71081380675248428958e-001
  +1.08976045278518340886e-001-j3.63338369088091972525e-001
  +8.95226324136730866599e-002-j3.54712352485457182993e-001
  +7.17271611809203180066e-002-j3.45411236166605462028e-001
  +5.55046169114039172898e-002-j3.35614273361167225751e-001
</dep>
<dep Pr4.v acfrequency>
  +1.32000000000000006217e+000
  +4.45558964002870983023e-001-j6.40809265911933878535e-001
  +1.34550320932917966132e-001-j4.33559741049997948714e-001
  +5.10172004995355088397e-002-j3.08438639124895885857e-001
  +1.90052510726711962330e-002-j2.36124615979074359284e-001
  +3.72199988269157622245e-003-j1.90046035198023266499e-001
  -4.63918982985450645273e-003-j1.58291716113638625263e-001
  -9.63735027493253793018e-003-j1.35102981881066674941e-001
  -1.28057794626805776517e-002-j1.17415468181690130223e-001
  -1.48912780541624045760e-002-j1.03463216658305934281e-001
  -1.62927062126816679655e-002-j9.21615523368646827329e-002
  -1.72390244445707052634e-002-j8.28091927055154830573e-002
  -1.78695613004672404500e-002-j7.49333248782910188446e-002
  -1.82733191522485294289e-002-j6.82038768456914162863e-002
  -1.85095519954645570948e-002-j6.23835524561792628684e-002
  -1.86191495852285338053e-002-j5.72974076579963464972e-002
  -1.86312339383424979689e-002-j5.28136213170197210687e-002
  -1.85671354539282407181e-002-j4.88309449523889327338e-002
  -1.84428725856265740557e-002-j4.52702800066591970474e-002
  -1.82707450090030532053e-002-j4.20688855565634067801e-002
  -1.80603845912086780068e-002-j3.91763083552881599680e-002
  -1.78194653360503885153e-002-j3.65514679537186915059e-002
  -1.75541934695718909731e-002-j3.41605331826103642001e-002
  -1.72696526305151920599e-002-j3.19753512609894652297e-002
  -1.69700516663972567066e-002-j2.99722694975837755660e-002
</dep>
<dep V2.i acfrequency>
  -0.00000000000000000000e+000
  -9.00820937044926640935e-003-j6.91955958575352254869e-003
  -1.22333428496079806708e-002-j5.10985749496170246764e-003
  -1.31338207810142992837e-002-j4.14325408641590727660e-003
  -1.35201937121039762746e-002-j3.71641355935946500477e-003
  -1.37500039924549292275e-002-j3.55463186165535984656e-003
  -1.39235786154543027954e-002-j3.53421069898632225076e-003
  -1.40768681050537722982e-002-j3.59485939142993810372e-003
  -1.42248976897976029538e-002-j3.70410547242780224461e-003
  -1.43745300266630224306e-002-j3.84293449608713328508e-003
  -1.45289907467763528687e-002-j3.99944376979453810467e-003
  -1.46897138950663631168e-002-j4.16577947872791808093e-003
  -1.48571811780708988582e-002-j4.33654314704677405767e-003
  -1.50313391836817619729e-002-j4.50790837474382768968e-003
  -1.52118230890312296222e-002-j4.67710403500185434994e-003
  -1.53980847832639929779e-002-j4.84209721864729564916e-003
  -1.55894706221770765892e-002-j5.00139026149446809522e-003
  -1.57852710400515107436e-002-j5.15388560941500324664e-003
  -1.59847535456751135841e-002-j5.29879248132653253578e-003
  -1.61871853730642771552e-002-j5.43556012836637122282e-003
  -1.63918493525280623002e-002-j5.56382853437732693980e-003
  -1.65980551195831632638e-002-j5.68339089347075741843e-003
  -1.68051469765780857324e-002-j5.79416427550847549371e-003
  -1.70125092627545909663e-002-j5.89616615531183760335e-003
  -1.72195698176708343607e-002-j5.98949526916106676083e-003
</dep>
<dep _net0.v acfrequency>
  +0.00000000000000000000e+000
  +0.00000000000000000000e+000
  +0.00000000000000000000e+000
  +2.50000000000000000000e+000+j2.00000000000000000000e+000
  +1.25000000000000000000e+000-j2.50000000000000000000e-001
  +1.43750000000000000000e+000
  +1.62500000000000000000e+000
  +1.26562500000000000000e+000+j2.50000000000000000000e-001
  +1.15625000000000000000e+000-j1.25000000000000000000e-001
  +1.15625000000000000000e+000+j5.00000000000000000000e-001
  +1.43750000000000000000e+000+j2.50000000000000000000e-001
  +1.18750000000000000000e+000+j2.50000000000000000000e-001
  +1.26562500000000000000e+000-j6.25000000000000000000e-002
  +1.28125000000000000000e+000
  +8.75000000000000000000e-001
  +1.25000000000000000000e+000+j5.00000000000000000000e-001
  +1.25000000000000000000e+000+j5.00000000000000000000e-001
  +1.09375000000000000000e+000-j5.00000000000000000000e-001
  +1.28125000000000000000e+000-j6.25000000000000000000e-002
  +1.50000000000000000000e+000-j5.00000000000000000000e-001
  +1.15625000000000000000e+000
  +1.09375000000000000000e+000+j2.50000000000000000000e-001
  +1.21875000000000000000e+000-j1.25000000000000000000e-001
  +1.50000000000000000000e+000
  +1.29687500000000000000e+000+j1.25000000000000000000e-001
</dep>
<dep _net3.v acfrequency>
  -1.32000000000000006217e+000
  -1.32000000000000006217e+000
  -1.32000000000000006217e+000
  +1.17999999999999993783e+000+j2.00000000000000000000e+000
  -7.00000000000000621725e-002-j2.50000000000000000000e-001
  +1.17499999999999937828e-001
  +3.04999999999999937828e-001
  -5.43750000000000621725e-002+j2.50000000000000000000e-001
  -1.63750000000000062172e-001-j1.25000000000000000000e-001
  -1.63750000000000062172e-001+j5.00000000000000000000e-001
  +1.17499999999999937828e-001+j2.50000000000000000000e-001
  -1.32500000000000062172e-001+j2.50000000000000000000e-001
  -5.43750000000000621725e-002-j6.25000000000000000000e-002
  -3.87500000000000621725e-002
  -4.45000000000000062172e-001
  -7.00000000000000621725e-002+j5.00000000000000000000e-001
  -7.00000000000000621725e-002+j5.00000000000000000000e-001
  -2.26250000000000062172e-001-j5.00000000000000000000e-001
  -3.87500000000000621725e-002-j6.25000000000000000000e-002
  +1.79999999999999937828e-001-j5.00000000000000000000e-001
  -1.63750000000000062172e-001
  -2.26250000000000062172e-001+j2.50000000000000000000e-001
  -1.01250000000000062172e-001-j1.25000000000000000000e-001
  +1.79999999999999937828e-001
  -2.31250000000000621725e-002+j1.25000000000000000000e-001
</dep>
<dep _net2.v acfrequency>
  -1.32000000000000006217e+000
  -1.32000000000000006217e+000
  -1.32000000000000006217e+000
  +1.17999999999999993783e+000+j2.00000000000000000000e+000
